Movie Embedding Statistics for model: text-embedding-3-small, dimensions: 384
================================================================================
Index  Time (s)   Size (bytes) Input (bytes) Overview Length
--------------------------------------------------------------------------------
0      0.485      3344         216          175            
1      0.303      3345         217          176            
2      0.351      3909         538          240            
3      0.363      3597         469          428            
4      0.302      3511         383          342            
5      0.270      4052         632          287            
6      0.328      3681         553          512            
7      0.484      4371         846          394            
8      0.352      3343         215          174            
9      0.371      4318         808          375            
10     0.275      3477         349          308            
11     0.327      3544         416          375            
12     0.410      3298         170          129            
13     0.304      3555         427          386            
14     0.513      3462         334          293            
15     0.422      3606         478          437            
16     0.292      3466         338          297            
17     0.341      3580         452          411            
18     0.477      3741         613          572            
19     0.372      3583         455          414            
20     0.251      5103         1334         638            
21     0.396      3435         307          266            
22     0.451      3360         232          191            
23     0.279      3390         262          221            
24     0.402      3385         257          216            
25     0.539      4549         738          681            
26     0.277      3464         336          295            
27     0.372      4809         1136         539            
28     0.293      3344         216          175            
29     0.450      3713         585          544            
30     1.794      3497         369          328            
31     0.301      3305         177          136            
32     0.345      5067         1310         626            
33     0.356      3338         210          169            
34     0.262      3621         346          144            
35     0.414      3355         227          186            
36     0.304      3606         478          437            
37     0.409      3378         250          209            
38     0.409      4602         1000         471            
39     0.510      3418         290          249            
40     0.408      3408         280          239            
41     0.511      3534         406          365            
42     0.403      3416         288          247            
43     0.391      3494         366          325            
44     0.326      3260         132          91             
45     0.436      3625         497          456            
46     0.486      3813         474          208            
47     0.289      3724         596          555            
48     0.332      4773         1114         528            
49     0.381      3464         336          295            
50     4.170      3987         590          266            
51     0.516      5591         1658         800            
52     0.442      3482         354          313            
53     0.561      4419         874          408            
54     0.456      3276         148          107            
55     0.407      4930         1212         577            
56     0.342      3354         226          185            
57     0.473      3946         436          379            
58     0.407      3558         430          389            
59     0.309      3856         728          687            
60     0.444      3550         422          381            
61     0.291      3771         446          194            
62     0.345      3315         187          146            
63     0.238      3560         432          391            
64     0.310      3306         178          137            
65     0.301      3565         437          396            
66     0.349      3443         315          274            
67     0.479      3502         374          333            
68     0.510      3301         173          132            
69     0.409      3898         770          729            
70     0.367      3434         306          265            
71     0.347      3486         358          317            
72     0.324      3400         272          231            
73     0.486      3269         141          100            
74     0.323      3540         412          371            
75     0.491      4308         804          373            
76     0.317      3465         337          296            
77     0.340      3807         679          638            
78     0.648      3369         241          200            
79     0.331      4305         802          372            
80     0.410      3564         436          395            
81     0.334      5319         1478         710            
82     0.628      3369         241          200            
83     0.358      4522         946          444            
84     0.353      4749         1098         520            
85     0.360      5373         1514         728            
86     0.311      4157         702          322            
87     0.407      3479         351          310            
88     0.406      3340         212          171            
89     0.375      3827         699          658            
90     0.272      3363         235          194            
91     0.266      4218         744          343            
92     0.513      4247         762          352            
93     0.407      4269         778          360            
94     0.407      3333         205          164            
95     0.408      3391         263          222            
96     0.409      3449         321          280            
97     0.306      3635         507          466            
98     0.306      3350         222          181            
99     0.262      3425         297          256            
100    0.349      3264         136          95             
101    0.305      3495         367          326            
102    0.325      4730         1084         513            
103    0.390      4056         491          434            
104    0.407      3322         194          153            
105    0.320      3311         183          142            
106    0.258      3442         314          273            
107    0.443      3578         450          409            
108    0.819      3490         362          321            
109    0.304      3373         245          204            
110    0.351      3548         420          379            
111    0.564      4017         610          276            
112    0.408      3405         277          236            
113    0.408      4145         694          318            
114    0.432      3972         580          261            
115    0.285      3528         400          359            
116    0.409      3544         416          375            
117    0.407      3298         170          129            
118    0.357      3748         620          579            
119    0.458      3438         310          269            
120    0.828      3470         342          301            
121    0.300      3471         343          302            
122    0.352      3324         196          155            
123    0.447      3340         212          171            
124    0.252      4374         848          395            
125    0.474      4071         943          902            
126    0.406      4305         802          372            
127    0.510      3750         622          581            
128    0.384      3463         335          294            
129    0.437      3519         391          350            
130    0.292      3428         300          259            
131    0.415      3532         404          363            
132    0.406      3648         520          479            
133    0.968      3379         251          210            
134    0.296      3354         226          185            
135    0.472      3382         254          213            
136    0.618      3492         364          323            
137    0.353      5166         1376         659            
138    0.372      3367         239          198            
139    0.300      3400         272          231            
140    0.401      3605         477          436            
141    0.408      3288         160          119            
142    0.252      3432         304          263            
143    0.466      3582         454          413            
144    0.334      3336         208          167            
145    0.252      3699         571          530            
146    0.290      3955         827          786            
147    0.318      3435         307          266            
148    0.360      3374         246          205            
149    0.271      3602         474          433            
150    3.589      5062         1304         623            
151    0.365      3287         159          118            
152    0.421      3335         207          166            
153    0.535      3768         640          599            
154    1.832      3387         259          218            
155    0.258      3629         501          460            
156    0.387      3539         411          370            
157    0.393      3351         223          182            
158    0.319      3623         495          454            
159    0.398      3291         163          122            
160    0.259      3791         663          622            
161    0.556      3230         102          61             
162    0.412      3343         215          174            
163    0.279      3543         415          374            
164    0.293      3512         384          343            
165    0.445      3354         226          185            
166    0.513      3442         314          273            
167    0.407      3424         296          255            
168    0.925      3463         335          294            
169    0.451      4233         754          348            
170    0.468      4260         772          357            
171    0.403      3539         411          370            
172    0.369      3336         208          167            
173    0.318      3456         328          287            
174    0.272      3440         312          271            
175    0.364      4565         974          458            
176    0.956      3300         172          131            
177    0.373      3241         113          72             
178    0.514      3444         316          275            
179    0.333      3343         215          174            
180    0.240      3512         384          343            
181    0.362      3488         360          319            
182    0.233      3550         422          381            
183    0.368      3655         527          486            
184    0.239      4557         970          456            
185    0.371      3400         272          231            
186    0.408      4278         784          363            
187    0.268      3469         341          300            
188    0.278      3609         481          440            
189    0.683      3279         151          110            
190    0.409      3732         604          563            
191    0.259      3876         516          229            
192    0.315      3509         381          340            
193    0.288      3778         650          609            
194    0.282      3295         167          126            
195    0.328      3392         264          223            
196    0.335      3333         205          164            
197    0.398      3581         453          412            
198    0.343      3352         224          183            
199    0.310      3462         334          293            

Summary Statistics:
--------------------------------------------------------------------------------
Total Processing Time: 87.70 seconds
Average Time per Movie: 0.44 seconds
Total Data Size: 719.03 KB
Average Data Size per Movie: 3.60 KB
