Movie Embedding Statistics for model: text-embedding-3-small, dimensions: 768
================================================================================
Index  Time (s)   Size (bytes) Input (bytes) Overview Length
--------------------------------------------------------------------------------
0      1.147      6416         216          175            
1      1.045      6417         217          176            
2      0.686      6981         538          240            
3      0.946      6669         469          428            
4      0.309      6583         383          342            
5      0.716      7124         632          287            
6      1.002      6753         553          512            
7      0.525      7443         846          394            
8      0.308      6415         215          174            
9      0.408      7390         808          375            
10     0.693      6549         349          308            
11     0.427      6616         416          375            
12     0.612      6370         170          129            
13     5.545      6627         427          386            
14     0.357      6534         334          293            
15     0.342      6678         478          437            
16     0.337      6538         338          297            
17     2.847      6652         452          411            
18     0.708      6813         613          572            
19     0.967      6655         455          414            
20     0.331      8175         1334         638            
21     0.310      6507         307          266            
22     0.326      6432         232          191            
23     0.806      6462         262          221            
24     0.404      6457         257          216            
25     0.406      7621         738          681            
26     0.261      6536         336          295            
27     0.342      7881         1136         539            
28     0.313      6416         216          175            
29     0.816      6785         585          544            
30     0.307      6569         369          328            
31     0.304      6377         177          136            
32     0.407      8139         1310         626            
33     0.305      6410         210          169            
34     0.386      6693         346          144            
35     0.297      6427         227          186            
36     0.400      6678         478          437            
37     0.345      6450         250          209            
38     0.345      7674         1000         471            
39     0.228      6490         290          249            
40     0.857      6480         280          239            
41     0.357      6606         406          365            
42     0.401      6488         288          247            
43     0.360      6566         366          325            
44     0.523      6332         132          91             
45     0.393      6697         497          456            
46     0.309      6885         474          208            
47     0.334      6796         596          555            
48     0.260      7845         1114         528            
49     0.374      6536         336          295            
50     0.376      7059         590          266            
51     0.383      8663         1658         800            
52     0.404      6554         354          313            
53     0.286      7491         874          408            
54     0.529      6348         148          107            
55     0.438      8002         1212         577            
56     0.379      6426         226          185            
57     0.406      7018         436          379            
58     0.298      6630         430          389            
59     0.415      6928         728          687            
60     0.323      6622         422          381            
61     0.372      6843         446          194            
62     0.327      6387         187          146            
63     0.299      6632         432          391            
64     0.408      6378         178          137            
65     0.236      6637         437          396            
66     0.271      6515         315          274            
67     0.433      6574         374          333            
68     0.322      6373         173          132            
69     0.296      6970         770          729            
70     0.580      6506         306          265            
71     0.406      6558         358          317            
72     0.510      6472         272          231            
73     0.307      6341         141          100            
74     0.411      6612         412          371            
75     0.415      7380         804          373            
76     0.295      6537         337          296            
77     0.412      6879         679          638            
78     0.386      6441         241          200            
79     0.431      7377         802          372            
80     0.341      6636         436          395            
81     0.370      8391         1478         710            
82     0.410      6441         241          200            
83     0.307      7594         946          444            
84     0.245      7821         1098         520            
85     0.365      8445         1514         728            
86     0.305      7229         702          322            
87     0.408      6551         351          310            
88     0.301      6412         212          171            
89     0.269      6899         699          658            
90     0.390      6435         235          194            
91     0.242      7290         744          343            
92     0.334      7319         762          352            
93     0.457      7341         778          360            
94     0.298      6405         205          164            
95     0.366      6463         263          222            
96     0.403      6521         321          280            
97     0.285      6707         507          466            
98     0.532      6422         222          181            
99     0.294      6497         297          256            
100    0.349      6336         136          95             
101    0.262      6567         367          326            
102    0.340      7802         1084         513            
103    0.311      7128         491          434            
104    0.388      6394         194          153            
105    0.340      6383         183          142            
106    0.321      6514         314          273            
107    0.254      6650         450          409            
108    0.402      6562         362          321            
109    0.409      6445         245          204            
110    0.304      6620         420          379            
111    0.407      7089         610          276            
112    0.257      6477         277          236            
113    0.453      7217         694          318            
114    0.306      7044         580          261            
115    0.709      6600         400          359            
116    1.028      6616         416          375            
117    0.367      6370         170          129            
118    0.375      6820         620          579            
119    0.350      6510         310          269            
120    0.293      6542         342          301            
121    0.447      6543         343          302            
122    0.323      6396         196          155            
123    0.335      6412         212          171            
124    0.462      7446         848          395            
125    0.371      7143         943          902            
126    0.330      7377         802          372            
127    0.290      6822         622          581            
128    0.303      6535         335          294            
129    0.306      6591         391          350            
130    0.428      6500         300          259            
131    0.382      6604         404          363            
132    0.443      6720         520          479            
133    0.309      6451         251          210            
134    0.315      6426         226          185            
135    0.398      6454         254          213            
136    0.305      6564         364          323            
137    0.408      8238         1376         659            
138    2.148      6439         239          198            
139    0.306      6472         272          231            
140    0.408      6677         477          436            
141    0.370      6360         160          119            
142    0.493      6504         304          263            
143    0.314      6654         454          413            
144    0.348      6408         208          167            
145    0.306      6771         571          530            
146    0.355      7027         827          786            
147    0.665      6507         307          266            
148    0.432      6446         246          205            
149    0.269      6674         474          433            
150    0.313      8134         1304         623            
151    0.433      6359         159          118            
152    0.388      6407         207          166            
153    0.399      6840         640          599            
154    0.418      6459         259          218            
155    0.406      6701         501          460            
156    0.357      6611         411          370            
157    0.292      6423         223          182            
158    0.576      6695         495          454            
159    0.291      6363         163          122            
160    0.317      6863         663          622            
161    0.306      6302         102          61             
162    0.404      6415         215          174            
163    0.400      6615         415          374            
164    0.416      6584         384          343            
165    0.308      6426         226          185            
166    0.408      6514         314          273            
167    0.418      6496         296          255            
168    0.319      6535         335          294            
169    0.397      7305         754          348            
170    0.284      7332         772          357            
171    0.414      6611         411          370            
172    0.242      6408         208          167            
173    0.284      6528         328          287            
174    0.390      6512         312          271            
175    0.510      7637         974          458            
176    0.406      6372         172          131            
177    0.407      6313         113          72             
178    0.409      6516         316          275            
179    0.281      6415         215          174            
180    0.474      6584         384          343            
181    0.776      6560         360          319            
182    0.408      6622         422          381            
183    0.406      6727         527          486            
184    0.407      7629         970          456            
185    0.305      6472         272          231            
186    0.286      7350         784          363            
187    0.815      6541         341          300            
188    0.350      6681         481          440            
189    0.311      6351         151          110            
190    0.406      6804         604          563            
191    0.264      6948         516          229            
192    0.346      6581         381          340            
193    0.378      6850         650          609            
194    0.281      6367         167          126            
195    0.337      6464         264          223            
196    0.398      6405         205          164            
197    0.408      6653         453          412            
198    0.515      6424         224          183            
199    0.402      6534         334          293            

Summary Statistics:
--------------------------------------------------------------------------------
Total Processing Time: 90.27 seconds
Average Time per Movie: 0.45 seconds
Total Data Size: 1319.03 KB
Average Data Size per Movie: 6.60 KB
