Movie Embedding Statistics for model: text-embedding-3-small, dimensions: 1536
================================================================================
Index  Time (s)   Size (bytes) Input (bytes) Overview Length
--------------------------------------------------------------------------------
0      0.673      12560        216          175            
1      0.245      12561        217          176            
2      0.296      13125        538          240            
3      0.337      12813        469          428            
4      0.429      12727        383          342            
5      0.682      13268        632          287            
6      0.284      12897        553          512            
7      0.671      13587        846          394            
8      0.632      12559        215          174            
9      0.333      13534        808          375            
10     0.279      12693        349          308            
11     0.263      12760        416          375            
12     0.683      12514        170          129            
13     0.764      12771        427          386            
14     0.263      12678        334          293            
15     0.597      12822        478          437            
16     0.226      12682        338          297            
17     0.237      12796        452          411            
18     0.429      12957        613          572            
19     0.302      12799        455          414            
20     0.510      14319        1334         638            
21     0.486      12651        307          266            
22     3.601      12576        232          191            
23     0.285      12606        262          221            
24     0.528      12601        257          216            
25     0.406      13765        738          681            
26     0.371      12680        336          295            
27     0.342      14025        1136         539            
28     0.303      12560        216          175            
29     0.404      12929        585          544            
30     0.308      12713        369          328            
31     0.267      12521        177          136            
32     0.234      14283        1310         626            
33     0.304      12554        210          169            
34     0.509      12837        346          144            
35     0.306      12571        227          186            
36     0.411      12822        478          437            
37     0.373      12594        250          209            
38     0.344      13818        1000         471            
39     0.604      12634        290          249            
40     0.405      12624        280          239            
41     0.405      12750        406          365            
42     0.306      12632        288          247            
43     0.288      12710        366          325            
44     0.217      12476        132          91             
45     0.305      12841        497          456            
46     0.406      13029        474          208            
47     0.268      12940        596          555            
48     0.441      13989        1114         528            
49     0.308      12680        336          295            
50     0.530      13203        590          266            
51     0.258      14807        1658         800            
52     0.256      12698        354          313            
53     0.357      13635        874          408            
54     0.302      12492        148          107            
55     0.285      14146        1212         577            
56     0.348      12570        226          185            
57     0.340      13162        436          379            
58     0.247      12774        430          389            
59     0.326      13072        728          687            
60     0.377      12766        422          381            
61     0.438      12987        446          194            
62     0.320      12531        187          146            
63     0.322      12776        432          391            
64     0.419      12522        178          137            
65     0.397      12781        437          396            
66     0.385      12659        315          274            
67     0.419      12718        374          333            
68     0.339      12517        173          132            
69     0.348      13114        770          729            
70     0.425      12650        306          265            
71     0.403      12702        358          317            
72     0.323      12616        272          231            
73     0.678      12485        141          100            
74     0.405      12756        412          371            
75     0.348      13524        804          373            
76     0.368      12681        337          296            
77     0.303      13023        679          638            
78     0.411      12585        241          200            
79     0.308      13521        802          372            
80     0.350      12780        436          395            
81     0.356      14535        1478         710            
82     0.408      12585        241          200            
83     0.613      13738        946          444            
84     0.313      13965        1098         520            
85     0.247      14589        1514         728            
86     0.354      13373        702          322            
87     0.304      12695        351          310            
88     0.303      12556        212          171            
89     0.410      13043        699          658            
90     0.320      12579        235          194            
91     0.217      13434        744          343            
92     0.254      13463        762          352            
93     0.248      13485        778          360            
94     0.376      12549        205          164            
95     0.305      12607        263          222            
96     0.370      12665        321          280            
97     0.467      12851        507          466            
98     0.312      12566        222          181            
99     0.379      12641        297          256            
100    0.328      12480        136          95             
101    0.499      12711        367          326            
102    0.267      13946        1084         513            
103    0.238      13272        491          434            
104    1.277      12538        194          153            
105    0.271      12527        183          142            
106    0.583      12658        314          273            
107    0.711      12794        450          409            
108    0.259      12706        362          321            
109    0.303      12589        245          204            
110    0.265      12764        420          379            
111    0.391      13233        610          276            
112    0.295      12621        277          236            
113    0.486      13361        694          318            
114    0.326      13188        580          261            
115    0.407      12744        400          359            
116    0.290      12760        416          375            
117    0.320      12514        170          129            
118    0.417      12964        620          579            
119    0.463      12654        310          269            
120    0.344      12686        342          301            
121    0.402      12687        343          302            
122    0.306      12540        196          155            
123    0.247      12556        212          171            
124    0.363      13590        848          395            
125    0.319      13287        943          902            
126    0.332      13521        802          372            
127    0.365      12966        622          581            
128    0.236      12679        335          294            
129    0.340      12735        391          350            
130    0.239      12644        300          259            
131    0.402      12748        404          363            
132    0.303      12864        520          479            
133    0.409      12595        251          210            
134    0.286      12570        226          185            
135    0.324      12598        254          213            
136    0.379      12708        364          323            
137    0.255      14382        1376         659            
138    0.317      12583        239          198            
139    0.368      12616        272          231            
140    0.249      12821        477          436            
141    0.274      12504        160          119            
142    0.266      12648        304          263            
143    0.494      12798        454          413            
144    0.348      12552        208          167            
145    0.403      12915        571          530            
146    0.350      13171        827          786            
147    0.366      12651        307          266            
148    0.245      12590        246          205            
149    0.318      12818        474          433            
150    0.317      14278        1304         623            
151    0.335      12503        159          118            
152    0.422      12551        207          166            
153    0.299      12984        640          599            
154    0.240      12603        259          218            
155    0.321      12845        501          460            
156    0.337      12755        411          370            
157    0.342      12567        223          182            
158    0.333      12839        495          454            
159    0.259      12507        163          122            
160    0.361      13007        663          622            
161    0.447      12446        102          61             
162    0.288      12559        215          174            
163    0.319      12759        415          374            
164    0.413      12728        384          343            
165    0.377      12570        226          185            
166    0.436      12658        314          273            
167    0.406      12640        296          255            
168    2.660      12679        335          294            
169    0.714      13449        754          348            
170    0.303      13476        772          357            
171    0.327      12755        411          370            
172    0.281      12552        208          167            
173    0.309      12672        328          287            
174    0.404      12656        312          271            
175    0.304      13781        974          458            
176    0.308      12516        172          131            
177    0.399      12457        113          72             
178    0.427      12660        316          275            
179    0.364      12559        215          174            
180    0.344      12728        384          343            
181    0.388      12704        360          319            
182    0.306      12766        422          381            
183    0.281      12871        527          486            
184    0.325      13773        970          456            
185    0.409      12616        272          231            
186    0.300      13494        784          363            
187    0.404      12685        341          300            
188    0.315      12825        481          440            
189    0.246      12495        151          110            
190    0.329      12948        604          563            
191    0.430      13092        516          229            
192    0.403      12725        381          340            
193    0.403      12994        650          609            
194    0.276      12511        167          126            
195    0.540      12608        264          223            
196    0.231      12549        205          164            
197    0.474      12797        453          412            
198    0.310      12568        224          183            
199    0.303      12678        334          293            

Summary Statistics:
--------------------------------------------------------------------------------
Total Processing Time: 79.08 seconds
Average Time per Movie: 0.40 seconds
Total Data Size: 2519.03 KB
Average Data Size per Movie: 12.60 KB
