Movie Embedding Statistics for model: text-embedding-3-large, dimensions: 1536
================================================================================
Index  Time (s)   Size (bytes) Input (bytes) Overview Length
--------------------------------------------------------------------------------
0      0.619      12560        216          175            
1      0.680      12561        217          176            
2      0.407      13125        538          240            
3      0.372      12813        469          428            
4      0.430      12727        383          342            
5      0.722      13268        632          287            
6      0.515      12897        553          512            
7      0.502      13587        846          394            
8      0.485      12559        215          174            
9      0.323      13534        808          375            
10     0.421      12693        349          308            
11     0.309      12760        416          375            
12     0.499      12514        170          129            
13     0.307      12771        427          386            
14     0.429      12678        334          293            
15     0.387      12822        478          437            
16     0.303      12682        338          297            
17     0.376      12796        452          411            
18     0.440      12957        613          572            
19     0.419      12799        455          414            
20     0.732      14319        1334         638            
21     0.231      12651        307          266            
22     0.511      12576        232          191            
23     0.423      12606        262          221            
24     0.316      12601        257          216            
25     0.329      13765        738          681            
26     0.681      12680        336          295            
27     0.535      14025        1136         539            
28     0.405      12560        216          175            
29     0.283      12929        585          544            
30     0.429      12713        369          328            
31     0.411      12521        177          136            
32     0.301      14283        1310         626            
33     0.369      12554        210          169            
34     0.343      12837        346          144            
35     0.303      12571        227          186            
36     0.309      12822        478          437            
37     0.290      12594        250          209            
38     0.324      13818        1000         471            
39     0.501      12634        290          249            
40     0.612      12624        280          239            
41     0.313      12750        406          365            
42     0.517      12632        288          247            
43     0.472      12710        366          325            
44     0.290      12476        132          91             
45     0.359      12841        497          456            
46     0.314      13029        474          208            
47     0.519      12940        596          555            
48     0.571      13989        1114         528            
49     0.324      12680        336          295            
50     0.392      13203        590          266            
51     0.302      14807        1658         800            
52     0.405      12698        354          313            
53     0.246      13635        874          408            
54     0.262      12492        148          107            
55     0.300      14146        1212         577            
56     0.406      12570        226          185            
57     0.259      13162        436          379            
58     0.325      12774        430          389            
59     0.305      13072        728          687            
60     0.380      12766        422          381            
61     0.337      12987        446          194            
62     0.421      12531        187          146            
63     0.334      12776        432          391            
64     0.482      12522        178          137            
65     0.407      12781        437          396            
66     0.513      12659        315          274            
67     0.393      12718        374          333            
68     0.355      12517        173          132            
69     0.472      13114        770          729            
70     0.317      12650        306          265            
71     0.232      12702        358          317            
72     0.242      12616        272          231            
73     0.535      12485        141          100            
74     0.393      12756        412          371            
75     0.419      13524        804          373            
76     0.521      12681        337          296            
77     0.347      13023        679          638            
78     0.448      12585        241          200            
79     0.306      13521        802          372            
80     0.321      12780        436          395            
81     0.487      14535        1478         710            
82     0.409      12585        241          200            
83     0.351      13738        946          444            
84     0.564      13965        1098         520            
85     0.406      14589        1514         728            
86     0.236      13373        702          322            
87     0.340      12695        351          310            
88     0.381      12556        212          171            
89     0.335      13043        699          658            
90     0.281      12579        235          194            
91     0.342      13434        744          343            
92     0.328      13463        762          352            
93     0.304      13485        778          360            
94     0.322      12549        205          164            
95     0.259      12607        263          222            
96     0.528      12665        321          280            
97     0.407      12851        507          466            
98     0.303      12566        222          181            
99     0.306      12641        297          256            
100    0.270      12480        136          95             
101    0.253      12711        367          326            
102    0.263      13946        1084         513            
103    0.313      13272        491          434            
104    0.348      12538        194          153            
105    0.376      12527        183          142            
106    0.412      12658        314          273            
107    0.403      12794        450          409            
108    0.509      12706        362          321            
109    0.416      12589        245          204            
110    0.507      12764        420          379            
111    0.503      13233        610          276            
112    0.612      12621        277          236            
113    0.270      13361        694          318            
114    0.540      13188        580          261            
115    0.430      12744        400          359            
116    0.310      12760        416          375            
117    0.584      12514        170          129            
118    0.508      12964        620          579            
119    0.308      12654        310          269            
120    0.379      12686        342          301            
121    0.363      12687        343          302            
122    0.367      12540        196          155            
123    0.406      12556        212          171            
124    0.303      13590        848          395            
125    0.385      13287        943          902            
126    0.485      13521        802          372            
127    0.458      12966        622          581            
128    0.410      12679        335          294            
129    0.403      12735        391          350            
130    0.240      12644        300          259            
131    0.261      12748        404          363            
132    0.319      12864        520          479            
133    0.395      12595        251          210            
134    0.313      12570        226          185            
135    0.604      12598        254          213            
136    0.360      12708        364          323            
137    0.397      14382        1376         659            
138    0.288      12583        239          198            
139    0.478      12616        272          231            
140    0.459      12821        477          436            
141    0.322      12504        160          119            
142    0.336      12648        304          263            
143    0.300      12798        454          413            
144    0.404      12552        208          167            
145    0.323      12915        571          530            
146    0.307      13171        827          786            
147    1.014      12651        307          266            
148    0.335      12590        246          205            
149    0.460      12818        474          433            
150    0.417      14278        1304         623            
151    0.367      12503        159          118            
152    0.436      12551        207          166            
153    0.455      12984        640          599            
154    0.370      12603        259          218            
155    0.354      12845        501          460            
156    0.324      12755        411          370            
157    0.460      12567        223          182            
158    0.283      12839        495          454            
159    0.412      12507        163          122            
160    0.364      13007        663          622            
161    0.223      12446        102          61             
162    0.405      12559        215          174            
163    0.315      12759        415          374            
164    0.266      12728        384          343            
165    0.317      12570        226          185            
166    0.428      12658        314          273            
167    0.349      12640        296          255            
168    0.296      12679        335          294            
169    0.369      13449        754          348            
170    0.375      13476        772          357            
171    0.323      12755        411          370            
172    0.311      12552        208          167            
173    0.312      12672        328          287            
174    0.409      12656        312          271            
175    0.274      13781        974          458            
176    0.344      12516        172          131            
177    0.367      12457        113          72             
178    0.435      12660        316          275            
179    0.335      12559        215          174            
180    0.548      12728        384          343            
181    0.948      12704        360          319            
182    0.406      12766        422          381            
183    0.310      12871        527          486            
184    0.405      13773        970          456            
185    0.309      12616        272          231            
186    0.410      13494        784          363            
187    0.297      12685        341          300            
188    0.408      12825        481          440            
189    0.409      12495        151          110            
190    0.321      12948        604          563            
191    0.383      13092        516          229            
192    0.328      12725        381          340            
193    0.400      12994        650          609            
194    0.242      12511        167          126            
195    0.360      12608        264          223            
196    0.300      12549        205          164            
197    0.304      12797        453          412            
198    0.515      12568        224          183            
199    0.422      12678        334          293            

Summary Statistics:
--------------------------------------------------------------------------------
Total Processing Time: 78.26 seconds
Average Time per Movie: 0.39 seconds
Total Data Size: 2519.03 KB
Average Data Size per Movie: 12.60 KB
