Movie Embedding Statistics for model: text-embedding-3-large, dimensions: 3072
================================================================================
Index  Time (s)   Size (bytes) Input (bytes) Overview Length
--------------------------------------------------------------------------------
0      0.757      24848        216          175            
1      0.485      24849        217          176            
2      0.509      25413        538          240            
3      0.537      25101        469          428            
4      0.787      25015        383          342            
5      0.816      25556        632          287            
6      0.510      25185        553          512            
7      0.526      25875        846          394            
8      0.489      24847        215          174            
9      0.409      25822        808          375            
10     0.357      24981        349          308            
11     0.494      25048        416          375            
12     0.681      24802        170          129            
13     0.390      25059        427          386            
14     0.634      24966        334          293            
15     0.609      25110        478          437            
16     0.384      24970        338          297            
17     0.438      25084        452          411            
18     0.579      25245        613          572            
19     0.445      25087        455          414            
20     0.366      26607        1334         638            
21     0.607      24939        307          266            
22     0.574      24864        232          191            
23     0.580      24894        262          221            
24     0.502      24889        257          216            
25     0.626      26053        738          681            
26     0.320      24968        336          295            
27     0.368      26313        1136         539            
28     0.475      24848        216          175            
29     0.626      25217        585          544            
30     0.438      25001        369          328            
31     0.327      24809        177          136            
32     0.553      26571        1310         626            
33     0.739      24842        210          169            
34     0.544      25125        346          144            
35     0.588      24859        227          186            
36     0.366      25110        478          437            
37     0.435      24882        250          209            
38     0.504      26106        1000         471            
39     0.558      24922        290          249            
40     0.464      24912        280          239            
41     0.426      25038        406          365            
42     0.661      24920        288          247            
43     0.401      24998        366          325            
44     0.409      24764        132          91             
45     0.992      25129        497          456            
46     0.359      25317        474          208            
47     0.800      25228        596          555            
48     0.428      26277        1114         528            
49     0.522      24968        336          295            
50     0.377      25491        590          266            
51     0.504      27095        1658         800            
52     0.534      24986        354          313            
53     0.477      25923        874          408            
54     0.521      24780        148          107            
55     0.534      26434        1212         577            
56     0.474      24858        226          185            
57     0.476      25450        436          379            
58     0.533      25062        430          389            
59     0.538      25360        728          687            
60     0.583      25054        422          381            
61     0.350      25275        446          194            
62     0.494      24819        187          146            
63     0.362      25064        432          391            
64     0.498      24810        178          137            
65     0.603      25069        437          396            
66     0.525      24947        315          274            
67     0.384      25006        374          333            
68     0.646      24805        173          132            
69     0.483      25402        770          729            
70     0.535      24938        306          265            
71     0.315      24990        358          317            
72     0.579      24904        272          231            
73     0.436      24773        141          100            
74     0.559      25044        412          371            
75     0.610      25812        804          373            
76     0.537      24969        337          296            
77     0.577      25311        679          638            
78     0.429      24873        241          200            
79     0.527      25809        802          372            
80     0.487      25068        436          395            
81     0.506      26823        1478         710            
82     0.787      24873        241          200            
83     0.433      26026        946          444            
84     0.491      26253        1098         520            
85     0.628      26877        1514         728            
86     0.382      25661        702          322            
87     0.714      24983        351          310            
88     0.460      24844        212          171            
89     0.656      25331        699          658            
90     0.606      24867        235          194            
91     0.418      25722        744          343            
92     0.390      25751        762          352            
93     0.527      25773        778          360            
94     0.540      24837        205          164            
95     1.748      24895        263          222            
96     0.387      24953        321          280            
97     0.513      25139        507          466            
98     0.563      24854        222          181            
99     0.711      24929        297          256            
100    0.533      24768        136          95             
101    0.673      24999        367          326            
102    0.421      26234        1084         513            
103    0.530      25560        491          434            
104    0.523      24826        194          153            
105    0.419      24815        183          142            
106    0.378      24946        314          273            
107    0.389      25082        450          409            
108    0.521      24994        362          321            
109    0.510      24877        245          204            
110    0.480      25052        420          379            
111    0.401      25521        610          276            
112    0.383      24909        277          236            
113    0.579      25649        694          318            
114    0.771      25476        580          261            
115    0.492      25032        400          359            
116    0.563      25048        416          375            
117    0.470      24802        170          129            
118    0.620      25252        620          579            
119    0.710      24942        310          269            
120    0.558      24974        342          301            
121    0.779      24975        343          302            
122    0.587      24828        196          155            
123    0.408      24844        212          171            
124    0.442      25878        848          395            
125    0.476      25575        943          902            
126    0.508      25809        802          372            
127    0.837      25254        622          581            
128    0.617      24967        335          294            
129    0.582      25023        391          350            
130    0.425      24932        300          259            
131    0.508      25036        404          363            
132    0.385      25152        520          479            
133    0.530      24883        251          210            
134    0.485      24858        226          185            
135    0.539      24886        254          213            
136    0.622      24996        364          323            
137    0.467      26670        1376         659            
138    0.412      24871        239          198            
139    0.604      24904        272          231            
140    0.371      25109        477          436            
141    0.764      24792        160          119            
142    0.507      24936        304          263            
143    0.508      25086        454          413            
144    0.552      24840        208          167            
145    0.474      25203        571          530            
146    0.404      25459        827          786            
147    0.580      24939        307          266            
148    0.536      24878        246          205            
149    0.384      25106        474          433            
150    0.629      26566        1304         623            
151    0.416      24791        159          118            
152    0.362      24839        207          166            
153    0.505      25272        640          599            
154    0.517      24891        259          218            
155    0.559      25133        501          460            
156    0.352      25043        411          370            
157    0.508      24855        223          182            
158    0.426      25127        495          454            
159    0.537      24795        163          122            
160    0.712      25295        663          622            
161    0.679      24734        102          61             
162    0.345      24847        215          174            
163    2.373      25047        415          374            
164    0.539      25016        384          343            
165    0.479      24858        226          185            
166    0.625      24946        314          273            
167    0.641      24928        296          255            
168    2.775      24967        335          294            
169    0.698      25737        754          348            
170    0.413      25764        772          357            
171    0.578      25043        411          370            
172    0.298      24840        208          167            
173    0.497      24960        328          287            
174    0.395      24944        312          271            
175    0.344      26069        974          458            
176    0.362      24804        172          131            
177    0.350      24745        113          72             
178    0.556      24948        316          275            
179    0.612      24847        215          174            
180    0.497      25016        384          343            
181    0.423      24992        360          319            
182    0.553      25054        422          381            
183    0.402      25159        527          486            
184    0.631      26061        970          456            
185    0.530      24904        272          231            
186    0.347      25782        784          363            
187    0.393      24973        341          300            
188    0.652      25113        481          440            
189    0.658      24783        151          110            
190    0.591      25236        604          563            
191    0.448      25380        516          229            
192    0.467      25013        381          340            
193    0.478      25282        650          609            
194    0.578      24799        167          126            
195    0.654      24896        264          223            
196    0.417      24837        205          164            
197    0.402      25085        453          412            
198    0.538      24856        224          183            
199    0.490      24966        334          293            

Summary Statistics:
--------------------------------------------------------------------------------
Total Processing Time: 108.78 seconds
Average Time per Movie: 0.54 seconds
Total Data Size: 4919.03 KB
Average Data Size per Movie: 24.60 KB
